#Vds(V)	         Vgs(V)	         Id(A/um)        
-1.00E+00	0.00E+00	-9.99E-12
-1.00E+00	1.00E-01	-9.99E-12
-1.00E+00	2.00E-01	-9.99E-12
-1.00E+00	3.00E-01	-9.99E-12
-1.00E+00	4.00E-01	-9.99E-12
-1.00E+00	5.00E-01	-9.99E-12
-1.00E+00	6.00E-01	-9.99E-12
-1.00E+00	7.00E-01	-9.99E-12
-1.00E+00	8.00E-01	-9.99E-12
-1.00E+00	9.00E-01	-9.99E-12
-1.00E+00	1.00E+00	-9.99E-12
-1.00E+00	1.10E+00	-9.99E-12
-1.00E+00	1.20E+00	-9.99E-12
-1.00E+00	1.30E+00	-9.99E-12
-1.00E+00	1.40E+00	-9.99E-12
-1.00E+00	1.50E+00	-9.99E-12
5.00E-02	0.00E+00	9.08E-12
5.00E-02	1.00E-01	4.25E-11
5.00E-02	2.00E-01	6.08E-11
5.00E-02	3.00E-01	6.28E-11
5.00E-02	4.00E-01	6.29E-11
5.00E-02	5.00E-01	6.29E-11
5.00E-02	6.00E-01	6.29E-11
5.00E-02	7.00E-01	6.29E-11
5.00E-02	8.00E-01	6.29E-11
5.00E-02	9.00E-01	6.29E-11
5.00E-02	1.00E+00	6.29E-11
5.00E-02	1.10E+00	6.29E-11
5.00E-02	1.20E+00	6.29E-11
5.00E-02	1.30E+00	6.29E-11
5.00E-02	1.40E+00	6.29E-11
5.00E-02	1.50E+00	6.29E-11
1.00E-01	0.00E+00	1.44E-11
1.00E-01	1.00E-01	1.26E-10
1.00E-01	2.00E-01	4.07E-10
1.00E-01	3.00E-01	4.96E-10
1.00E-01	4.00E-01	5.03E-10
1.00E-01	5.00E-01	5.04E-10
1.00E-01	6.00E-01	5.04E-10
1.00E-01	7.00E-01	5.04E-10
1.00E-01	8.00E-01	5.04E-10
1.00E-01	9.00E-01	5.04E-10
1.00E-01	1.00E+00	5.04E-10
1.00E-01	1.10E+00	5.04E-10
1.00E-01	1.20E+00	5.04E-10
1.00E-01	1.30E+00	5.04E-10
1.00E-01	1.40E+00	5.04E-10
1.00E-01	1.50E+00	5.04E-10
2.00E-01	0.00E+00	2.26E-11
2.00E-01	1.00E-01	2.45E-10
2.00E-01	2.00E-01	2.47E-09
2.00E-01	3.00E-01	1.42E-08
2.00E-01	4.00E-01	2.39E-08
2.00E-01	5.00E-01	2.53E-08
2.00E-01	6.00E-01	2.54E-08
2.00E-01	7.00E-01	2.54E-08
2.00E-01	8.00E-01	2.55E-08
2.00E-01	9.00E-01	2.55E-08
2.00E-01	1.00E+00	2.55E-08
2.00E-01	1.10E+00	2.55E-08
2.00E-01	1.20E+00	2.55E-08
2.00E-01	1.30E+00	2.55E-08
2.00E-01	1.40E+00	2.55E-08
2.00E-01	1.50E+00	2.55E-08
3.00E-01	0.00E+00	3.31E-11
3.00E-01	1.00E-01	3.58E-10
3.00E-01	2.00E-01	3.93E-09
3.00E-01	3.00E-01	4.25E-08
3.00E-01	4.00E-01	3.41E-07
3.00E-01	5.00E-01	9.39E-07
3.00E-01	6.00E-01	1.16E-06
3.00E-01	7.00E-01	1.22E-06
3.00E-01	8.00E-01	1.25E-06
3.00E-01	9.00E-01	1.26E-06
3.00E-01	1.00E+00	1.26E-06
3.00E-01	1.10E+00	1.27E-06
3.00E-01	1.20E+00	1.27E-06
3.00E-01	1.30E+00	1.27E-06
3.00E-01	1.40E+00	1.28E-06
3.00E-01	1.50E+00	1.28E-06
4.00E-01	0.00E+00	4.75E-11
4.00E-01	1.00E-01	5.10E-10
4.00E-01	2.00E-01	5.62E-09
4.00E-01	3.00E-01	6.29E-08
4.00E-01	4.00E-01	6.66E-07
4.00E-01	5.00E-01	4.81E-06
4.00E-01	6.00E-01	1.41E-05
4.00E-01	7.00E-01	2.19E-05
4.00E-01	8.00E-01	2.74E-05
4.00E-01	9.00E-01	3.13E-05
4.00E-01	1.00E+00	3.42E-05
4.00E-01	1.10E+00	3.65E-05
4.00E-01	1.20E+00	3.83E-05
4.00E-01	1.30E+00	3.97E-05
4.00E-01	1.40E+00	4.09E-05
4.00E-01	1.50E+00	4.20E-05
5.00E-01	0.00E+00	6.71E-11
5.00E-01	1.00E-01	7.13E-10
5.00E-01	2.00E-01	7.82E-09
5.00E-01	3.00E-01	8.74E-08
5.00E-01	4.00E-01	9.30E-07
5.00E-01	5.00E-01	7.24E-06
5.00E-01	6.00E-01	2.80E-05
5.00E-01	7.00E-01	5.91E-05
5.00E-01	8.00E-01	9.03E-05
5.00E-01	9.00E-01	1.18E-04
5.00E-01	1.00E+00	1.42E-04
5.00E-01	1.10E+00	1.63E-04
5.00E-01	1.20E+00	1.81E-04
5.00E-01	1.30E+00	1.97E-04
5.00E-01	1.40E+00	2.12E-04
5.00E-01	1.50E+00	2.24E-04
6.00E-01	0.00E+00	9.34E-11
6.00E-01	1.00E-01	9.78E-10
6.00E-01	2.00E-01	1.06E-08
6.00E-01	3.00E-01	1.17E-07
6.00E-01	4.00E-01	1.22E-06
6.00E-01	5.00E-01	9.14E-06
6.00E-01	6.00E-01	3.48E-05
6.00E-01	7.00E-01	7.73E-05
6.00E-01	8.00E-01	1.28E-04
6.00E-01	9.00E-01	1.81E-04
6.00E-01	1.00E+00	2.32E-04
6.00E-01	1.10E+00	2.80E-04
6.00E-01	1.20E+00	3.23E-04
6.00E-01	1.30E+00	3.63E-04
6.00E-01	1.40E+00	3.99E-04
6.00E-01	1.50E+00	4.32E-04
7.00E-01	0.00E+00	1.28E-10
7.00E-01	1.00E-01	1.33E-09
7.00E-01	2.00E-01	1.42E-08
7.00E-01	3.00E-01	1.55E-07
7.00E-01	4.00E-01	1.58E-06
7.00E-01	5.00E-01	1.12E-05
7.00E-01	6.00E-01	4.02E-05
7.00E-01	7.00E-01	8.73E-05
7.00E-01	8.00E-01	1.45E-04
7.00E-01	9.00E-01	2.08E-04
7.00E-01	1.00E+00	2.74E-04
7.00E-01	1.10E+00	3.40E-04
7.00E-01	1.20E+00	4.03E-04
7.00E-01	1.30E+00	4.64E-04
7.00E-01	1.40E+00	5.21E-04
7.00E-01	1.50E+00	5.75E-04
8.00E-01	0.00E+00	1.75E-10
8.00E-01	1.00E-01	1.78E-09
8.00E-01	2.00E-01	1.88E-08
8.00E-01	3.00E-01	2.02E-07
8.00E-01	4.00E-01	2.00E-06
8.00E-01	5.00E-01	1.33E-05
8.00E-01	6.00E-01	4.53E-05
8.00E-01	7.00E-01	9.53E-05
8.00E-01	8.00E-01	1.56E-04
8.00E-01	9.00E-01	2.23E-04
8.00E-01	1.00E+00	2.94E-04
8.00E-01	1.10E+00	3.66E-04
8.00E-01	1.20E+00	4.38E-04
8.00E-01	1.30E+00	5.10E-04
8.00E-01	1.40E+00	5.80E-04
8.00E-01	1.50E+00	6.48E-04
9.00E-01	0.00E+00	2.35E-10
9.00E-01	1.00E-01	2.37E-09
9.00E-01	2.00E-01	2.47E-08
9.00E-01	3.00E-01	2.61E-07
9.00E-01	4.00E-01	2.49E-06
9.00E-01	5.00E-01	1.56E-05
9.00E-01	6.00E-01	5.01E-05
9.00E-01	7.00E-01	1.03E-04
9.00E-01	8.00E-01	1.66E-04
9.00E-01	9.00E-01	2.35E-04
9.00E-01	1.00E+00	3.08E-04
9.00E-01	1.10E+00	3.83E-04
9.00E-01	1.20E+00	4.58E-04
9.00E-01	1.30E+00	5.34E-04
9.00E-01	1.40E+00	6.09E-04
9.00E-01	1.50E+00	6.83E-04
1.00E+00	0.00E+00	3.13E-10
1.00E+00	1.00E-01	3.12E-09
1.00E+00	2.00E-01	3.20E-08
1.00E+00	3.00E-01	3.31E-07
1.00E+00	4.00E-01	3.05E-06
1.00E+00	5.00E-01	1.79E-05
1.00E+00	6.00E-01	5.49E-05
1.00E+00	7.00E-01	1.09E-04
1.00E+00	8.00E-01	1.74E-04
1.00E+00	9.00E-01	2.45E-04
1.00E+00	1.00E+00	3.19E-04
1.00E+00	1.10E+00	3.96E-04
1.00E+00	1.20E+00	4.73E-04
1.00E+00	1.30E+00	5.51E-04
1.00E+00	1.40E+00	6.28E-04
1.00E+00	1.50E+00	7.05E-04
